(1773791588.450904) vcan2 00614010##51F
(1773791588.550834) vcan2 00614010##51F
(1773791588.651217) vcan2 00604010##500000000A470A94100583F416F44C1472DF8A5410AD7A33C00007ABD00000000
(1773791588.651256) vcan2 00614010##51F
(1773791588.750719) vcan2 00614010##51F
(1773791588.850632) vcan2 00614010##51F
(1773791588.950413) vcan2 00614010##51F
(1773791589.050357) vcan2 00614010##51F
(1773791589.150675) vcan2 00604010##5000000001F85A941005049414145C147E3F0A2410AD7A33C002080BE00000000
(1773791589.150715) vcan2 00614010##51F
(1773791589.250129) vcan2 00614010##51F
(1773791589.350037) vcan2 00614010##51F
(1773791589.449953) vcan2 00614010##51F
(1773791589.549832) vcan2 00614010##51F
(1773791589.650141) vcan2 00604010##500000000295CA94100944E419D43C147131BA4410AD7A33C00C0C1BD00000000
(1773791589.650174) vcan2 00614010##51F
(1773791589.749704) vcan2 00614010##51F
(1773791589.849522) vcan2 00614010##51F
(1773791589.949393) vcan2 00614010##51F
(1773791590.049299) vcan2 00614010##51F
(1773791590.149653) vcan2 00604010##500000000A470A94100404A410F43C14728EDA2410AD7A33C0000E1BD00000000
(1773791590.149678) vcan2 00614010##51F
(1773791590.249114) vcan2 00614010##51F
(1773791590.349007) vcan2 00614010##51F
(1773791590.448879) vcan2 00614010##51F
(1773791590.548685) vcan2 00614010##51F
(1773791590.649081) vcan2 00604010##5000000001F85A941007C4341D844C147D033A6410AD7A33C00C0F3BD00000000
(1773791590.649104) vcan2 00614010##51F
(1773791590.748542) vcan2 00614010##51F
(1773791590.848460) vcan2 00614010##51F
(1773791590.948283) vcan2 00614010##51F
(1773791591.048204) vcan2 00614010##51F
(1773791591.148087) vcan2 00614010##51F
(1773791591.148541) vcan2 00604010##500000000A470A94100CC41410F43C1479C79A2410AD7A33C00E092BE00000000
(1773791591.247956) vcan2 00614010##51F
(1773791591.347907) vcan2 00614010##51F
(1773791591.447721) vcan2 00614010##51F
(1773791591.547587) vcan2 00614010##51F
(1773791591.648035) vcan2 00604010##500000000AE47A94100DC4341EB46C1472872A2410AD7A33C000048BD00000000
(1773791591.648061) vcan2 00614010##51F
(1773791591.747332) vcan2 00614010##51F
(1773791591.847298) vcan2 00614010##51F
(1773791591.947187) vcan2 00614010##51F
(1773791592.047073) vcan2 00614010##51F
(1773791592.147414) vcan2 00604010##5000000003333A94100405041F941C147FE71A5410AD7A33C00002FBD00000000
(1773791592.147466) vcan2 00614010##51F
(1773791592.246916) vcan2 00614010##51F
(1773791592.346753) vcan2 00614010##51F
(1773791592.446683) vcan2 00614010##51F
(1773791592.546577) vcan2 00614010##51F
(1773791592.646922) vcan2 00604010##500000000295CA94100A450413D42C147FDCDA4410AD7A33C00002FBD00000000
(1773791592.646948) vcan2 00614010##51F
(1773791592.746385) vcan2 00614010##51F
(1773791592.846283) vcan2 00614010##51F
(1773791592.946157) vcan2 00614010##51F
(1773791593.046069) vcan2 00614010##51F
(1773791593.146384) vcan2 00604010##500000000AE47A94100A04D418A45C1477031A4410AD7A33C00606ABE00000000
(1773791593.146418) vcan2 00614010##51F
(1773791593.245816) vcan2 00614010##51F
(1773791593.345713) vcan2 00614010##51F
(1773791593.445595) vcan2 00614010##51F
(1773791593.545529) vcan2 00614010##51F
(1773791593.645864) vcan2 00604010##500000000AE47A941005C45412B44C14770DFA3410AD7A33C0000E1BD00000000
(1773791593.645889) vcan2 00614010##51F
(1773791593.745375) vcan2 00614010##51F
(1773791593.845263) vcan2 00614010##51F
(1773791593.945151) vcan2 00614010##51F
(1773791594.045067) vcan2 00614010##51F
(1773791594.145344) vcan2 00604010##5000000003333A94100543C415044C147B656A4410AD7A33C0000E1BD00000000
(1773791594.145370) vcan2 00614010##51F
(1773791594.244814) vcan2 00614010##51F
(1773791594.344719) vcan2 00614010##51F
(1773791594.444559) vcan2 00614010##51F
(1773791594.544523) vcan2 00614010##51F
(1773791594.644830) vcan2 00604010##500000000295CA94100D84041D441C1475992A4410AD7A33C004003BE00000000
(1773791594.644856) vcan2 00614010##51F
(1773791594.744289) vcan2 00614010##51F
(1773791594.844184) vcan2 00614010##51F
(1773791594.944100) vcan2 00614010##51F
(1773791595.043991) vcan2 00614010##51F
(1773791595.144312) vcan2 00604010##500000000AE47A94100604B412B44C147B656A4410AD7A33C000096BD00000000
(1773791595.144336) vcan2 00614010##51F
(1773791595.243780) vcan2 00614010##51F
(1773791595.343689) vcan2 00614010##51F
(1773791595.443593) vcan2 00614010##51F
(1773791595.543556) vcan2 00614010##51F
(1773791595.643436) vcan2 00614010##51F
(1773791595.643846) vcan2 00604010##500000000B81EA94100D440417E43C1479C79A2410AD7A33C008009BE00000000
(1773791595.743201) vcan2 00614010##51F
(1773791595.843178) vcan2 00614010##51F
(1773791595.943037) vcan2 00614010##51F
(1773791596.042929) vcan2 00614010##51F
(1773791596.143253) vcan2 00604010##5000000003D0AA941000C4A411443C147896AA5410AD7A33C000048BD00000000
(1773791596.143278) vcan2 00614010##51F
(1773791596.242692) vcan2 00614010##51F
(1773791596.342564) vcan2 00614010##51F
(1773791596.442483) vcan2 00614010##51F
(1773791596.542346) vcan2 00614010##51F
(1773791596.642632) vcan2 00604010##500000000B81EA94100284541DE44C147A009A5410AD7A33C00606ABE00000000
(1773791596.642659) vcan2 00614010##51F
(1773791596.742149) vcan2 00614010##51F
(1773791596.842045) vcan2 00614010##51F
(1773791596.941958) vcan2 00614010##51F
(1773791597.041836) vcan2 00614010##51F
(1773791597.142174) vcan2 00604010##500000000AE47A941002C45418A45C147131BA4410AD7A33C0000483B00000000
(1773791597.142201) vcan2 00614010##51F
(1773791597.241589) vcan2 00614010##51F
(1773791597.341514) vcan2 00614010##51F
(1773791597.441352) vcan2 00614010##51F
(1773791597.541262) vcan2 00614010##51F
(1773791597.641573) vcan2 00604010##500000000B81EA94100F84441E643C1472B5EA4410AD7A33C00204BBE00000000
(1773791597.641601) vcan2 00614010##51F
(1773791597.741046) vcan2 00614010##51F
(1773791597.840961) vcan2 00614010##51F
(1773791597.940794) vcan2 00614010##51F
(1773791598.040740) vcan2 00614010##51F
(1773791598.140621) vcan2 00614010##51F
(1773791598.141119) vcan2 00604010##5000000003D0AA941005848411443C147E7D2A5410AD7A33C00A057BE00000000
(1773791598.240559) vcan2 00614010##51F
(1773791598.340508) vcan2 00614010##51F
(1773791598.440358) vcan2 00614010##51F
(1773791598.540235) vcan2 00614010##51F
(1773791598.640622) vcan2 00604010##5000000003D0AA941002C4B41EC3FC147F9B8A2410AD7A33C008009BE00000000
(1773791598.640648) vcan2 00614010##51F
(1773791598.740043) vcan2 00614010##51F
(1773791598.839973) vcan2 00614010##51F
(1773791598.939859) vcan2 00614010##51F
(1773791599.039736) vcan2 00614010##51F
(1773791599.140089) vcan2 00604010##5000000003D0AA94100043E411443C147B36AA2410AD7A33C000016BE00000000
(1773791599.140116) vcan2 00614010##51F
(1773791599.239522) vcan2 00614010##51F
(1773791599.339387) vcan2 00614010##51F
(1773791599.439261) vcan2 00614010##51F
(1773791599.539136) vcan2 00614010##51F
(1773791599.639493) vcan2 00604010##5000000003333A941009841415843C14757F8A2410AD7A33C00C0DABD00000000
(1773791599.639521) vcan2 00614010##51F
(1773791599.738912) vcan2 00614010##51F
(1773791599.838802) vcan2 00614010##51F
(1773791599.938680) vcan2 00614010##51F
(1773791600.038539) vcan2 00614010##51F
(1773791600.138490) vcan2 00614010##51F
(1773791600.138900) vcan2 00604010##5000000003333A94100204C41B844C147CA5BA2410AD7A33C0080EDBD00000000
(1773791600.238446) vcan2 00614010##51F
(1773791600.338294) vcan2 00614010##51F
(1773791600.438209) vcan2 00614010##51F
(1773791600.538108) vcan2 00614010##51F
(1773791600.638482) vcan2 00604010##5000000003333A941003051419041C147B36AA2410AD7A33C0010A4BE00000000
(1773791600.638512) vcan2 00614010##51F
(1773791600.737874) vcan2 00614010##51F
(1773791600.837797) vcan2 00614010##51F
(1773791600.937683) vcan2 00614010##51F
(1773791601.037556) vcan2 00614010##51F
(1773791601.137879) vcan2 00604010##5000000003D0AA94100D843411443C147B4BCA2410AD7A33C0000C8BD00000000
(1773791601.137906) vcan2 00614010##51F
(1773791601.237347) vcan2 00614010##51F
(1773791601.337255) vcan2 00614010##51F
(1773791601.437138) vcan2 00614010##51F
(1773791601.536990) vcan2 00614010##51F
(1773791601.637342) vcan2 00604010##5000000003D0AA94100F05141AC42C147CCA3A3410AD7A33C00E044BE00000000
(1773791601.637366) vcan2 00614010##51F
(1773791601.736779) vcan2 00614010##51F
(1773791601.836624) vcan2 00614010##51F
(1773791601.936532) vcan2 00614010##51F
(1773791602.036471) vcan2 00614010##51F
(1773791602.136333) vcan2 00614010##51F
(1773791602.136742) vcan2 00604010##500000000AE47A94100FC44418A45C147B36AA2410AD7A33C00C0DABE00000000
(1773791602.236172) vcan2 00614010##51F
(1773791602.335941) vcan2 00614010##51F
(1773791602.435899) vcan2 00614010##51F
(1773791602.535730) vcan2 00614010##51F
(1773791602.636042) vcan2 00604010##500000000AE47A94100844F412B44C147E3F0A2410AD7A33C00C0A8BD00000000
(1773791602.636066) vcan2 00614010##51F
(1773791602.735497) vcan2 00614010##51F
(1773791602.835326) vcan2 00614010##51F
(1773791602.935174) vcan2 00614010##51F
(1773791603.035014) vcan2 00614010##51F
(1773791603.135307) vcan2 00604010##5000000003D0AA941005052417444C147131BA4410AD7A33C00C08FBD00000000
(1773791603.135343) vcan2 00614010##51F
(1773791603.234721) vcan2 00614010##51F
(1773791603.334554) vcan2 00614010##51F
(1773791603.434394) vcan2 00614010##51F
(1773791603.534241) vcan2 00614010##51F
(1773791603.634551) vcan2 00604010##5000000003D0AA941002848417444C147E494A3410AD7A33C00204BBE00000000
(1773791603.634576) vcan2 00614010##51F
(1773791603.733977) vcan2 00614010##51F
(1773791603.833835) vcan2 00614010##51F
(1773791603.933682) vcan2 00614010##51F
(1773791604.033533) vcan2 00614010##51F
(1773791604.133842) vcan2 00604010##500000000B81EA94100484641A746C147CBFFA2410AD7A33C00E044BE00000000
(1773791604.133868) vcan2 00614010##51F
(1773791604.233228) vcan2 00614010##51F
(1773791604.333049) vcan2 00614010##51F
(1773791604.432871) vcan2 00614010##51F
(1773791604.532770) vcan2 00614010##51F
(1773791604.633016) vcan2 00604010##500000000AE47A941002C45412245C1475992A4410AD7A33C000096BC00000000
(1773791604.633042) vcan2 00614010##51F
(1773791604.732483) vcan2 00614010##51F
(1773791604.832300) vcan2 00614010##51F
(1773791604.932155) vcan2 00614010##51F
(1773791605.032003) vcan2 00614010##51F
(1773791605.132328) vcan2 00604010##500000000B81EA94100184641E643C147E3F0A2410AD7A33C000016BE00000000
(1773791605.132353) vcan2 00614010##51F
(1773791605.231698) vcan2 00614010##51F
(1773791605.331548) vcan2 00614010##51F
(1773791605.431365) vcan2 00614010##51F
(1773791605.531235) vcan2 00614010##51F
(1773791605.631510) vcan2 00604010##5000000003333A941001050415843C147E4E6A3410AD7A33C00401CBE00000000
(1773791605.631542) vcan2 00614010##51F
(1773791605.730900) vcan2 00614010##51F
(1773791605.830760) vcan2 00614010##51F
(1773791605.930638) vcan2 00614010##51F
(1773791606.030488) vcan2 00614010##51F
(1773791606.130772) vcan2 00604010##5000000003333A94100F43E415044C1479FB7A4410AD7A33C000096BE00000000
(1773791606.130797) vcan2 00614010##51F
(1773791606.230177) vcan2 00614010##51F
(1773791606.330032) vcan2 00614010##51F
(1773791606.429922) vcan2 00614010##51F
(1773791606.529748) vcan2 00614010##51F
(1773791606.630038) vcan2 00604010##500000000B81EA94100AC4C41E643C1478918A5410AD7A33C004067BE00000000
(1773791606.630063) vcan2 00614010##51F
(1773791606.729486) vcan2 00614010##51F
(1773791606.829309) vcan2 00614010##51F
(1773791606.929161) vcan2 00614010##51F
(1773791607.029004) vcan2 00614010##51F
(1773791607.129282) vcan2 00604010##500000000AE47A941007C46412245C147CCA3A3410AD7A33C00A057BE00000000
(1773791607.129308) vcan2 00614010##51F
(1773791607.228728) vcan2 00614010##51F
(1773791607.328597) vcan2 00614010##51F
(1773791607.428444) vcan2 00614010##51F
(1773791607.528280) vcan2 00614010##51F
(1773791607.628563) vcan2 00604010##500000000295CA94100544F411D49C1476F8DA3410AD7A33C0040CEBD00000000
(1773791607.628589) vcan2 00614010##51F
(1773791607.728040) vcan2 00614010##51F
(1773791607.827845) vcan2 00614010##51F
(1773791607.927728) vcan2 00614010##51F
(1773791608.027588) vcan2 00614010##51F
(1773791608.127853) vcan2 00604010##500000000A470A94100EC42416645C14770DFA3410AD7A33C00A057BE00000000
(1773791608.127879) vcan2 00614010##51F
(1773791608.227259) vcan2 00614010##51F
(1773791608.327124) vcan2 00614010##51F
(1773791608.426997) vcan2 00614010##51F
(1773791608.526846) vcan2 00614010##51F
(1773791608.627132) vcan2 00604010##500000000AE47A94100804C418A45C147B656A4410AD7A33C0040833D00000000
(1773791608.627158) vcan2 00614010##51F
(1773791608.726544) vcan2 00614010##51F
(1773791608.826417) vcan2 00614010##51F
(1773791608.926277) vcan2 00614010##51F
(1773791609.026145) vcan2 00614010##51F
(1773791609.126467) vcan2 00604010##5000000003333A94100404D417947C14757F8A2410AD7A33C00D084BE00000000
(1773791609.126500) vcan2 00614010##51F
(1773791609.225861) vcan2 00614010##51F
(1773791609.325700) vcan2 00614010##51F
(1773791609.425578) vcan2 00614010##51F
(1773791609.525473) vcan2 00614010##51F
(1773791609.625339) vcan2 00614010##51F
(1773791609.625717) vcan2 00604010##5000000003333A94100604B41F941C1475992A4410AD7A33C0000E13C00000000
(1773791609.725200) vcan2 00614010##51F
(1773791609.825085) vcan2 00614010##51F
(1773791609.924977) vcan2 00614010##51F
(1773791610.024874) vcan2 00614010##51F
(1773791610.125200) vcan2 00604010##500000000295CA94100A453415D46C147F8C2A1410AD7A33C008009BE00000000
(1773791610.125226) vcan2 00614010##51F
(1773791610.224631) vcan2 00614010##51F
(1773791610.324513) vcan2 00614010##51F
(1773791610.424359) vcan2 00614010##51F
